T4100 000:068.417   SEGGER J-Link V8.70 Log File
T4100 000:068.522   DLL Compiled: Sep 17 2025 12:10:41
T4100 000:068.525   Logging started @ 2025-12-04 16:11
T4100 000:068.528   Process: D:\keil\Core\UV4\UV4.exe
T4100 000:068.536 - 68.530ms 
T4100 000:068.542 JLINK_SetWarnOutHandler(...)
T4100 000:068.545 - 0.003ms 
T4100 000:068.548 JLINK_OpenEx(...)
T4100 000:071.677   Firmware: J-Link ARM-OB STM32 compiled Aug 22 2012 19:52:04
T4100 000:072.127   Firmware: J-Link ARM-OB STM32 compiled Aug 22 2012 19:52:04
T4100 000:073.696   Hardware: V7.00
T4100 000:073.710   S/N: 20090928
T4100 000:073.713   OEM: SEGGER
T4100 000:073.717   Feature(s): RDI,FlashDL,FlashBP,JFlash,GDB
T4100 000:073.903   Bootloader: (FW returned invalid version)
T4100 000:074.410   TELNET listener socket opened on port 19021
T4100 000:074.573   WEBSRV WEBSRV_Init(): Starting webserver thread(s)
T4100 000:074.698   WEBSRV Webserver running on local port 19080
T4100 000:074.830   Looking for J-Link GUI Server exe at: D:\keil\Core\ARM\Segger\JLinkGUIServer.exe
T4100 000:074.888   Looking for J-Link GUI Server exe at: C:\Program Files\SEGGER\JLink_V870\JLinkGUIServer.exe
T4100 000:074.914   Forking J-Link GUI Server: C:\Program Files\SEGGER\JLink_V870\JLinkGUIServer.exe
T4100 000:078.608   J-Link GUI Server info: "J-Link GUI server V8.70 "
T4100 000:078.841 - 10.288ms returns "O.K."
T4100 000:078.857 JLINK_GetEmuCaps()
T4100 000:078.862 - 0.003ms returns 0x88EA5833
T4100 000:078.873 JLINK_TIF_GetAvailable(...)
T4100 000:079.026 - 0.152ms 
T4100 000:079.033 JLINK_SetErrorOutHandler(...)
T4100 000:079.036 - 0.002ms 
T4100 000:079.056 JLINK_ExecCommand("ProjectFile = "F:\Aproject\miniboard\mini_ctrl\proj\mini_control\MDK-ARM\JLinkSettings.ini"", ...). 
T4100 000:088.867   Ref file found at: D:\keil\Core\ARM\Segger\JLinkDevices.ref
T4100 000:088.927   REF file references invalid XML file: C:\Program Files\SEGGER\JLink_V870\JLinkDevices.xml
T4100 000:090.027 - 10.971ms returns 0x00
T4100 000:092.885 JLINK_ExecCommand("Device = STM32F103VE", ...). 
T4100 000:094.710   Device "STM32F103VE" selected.
T4100 000:095.054 - 2.154ms returns 0x00
T4100 000:095.064 JLINK_ExecCommand("DisableConnectionTimeout", ...). 
T4100 000:095.075   ERROR: Unknown command
T4100 000:095.079 - 0.011ms returns 0x01
T4100 000:095.083 JLINK_GetHardwareVersion()
T4100 000:095.087 - 0.003ms returns 70000
T4100 000:095.090 JLINK_GetDLLVersion()
T4100 000:095.093 - 0.002ms returns 87000
T4100 000:095.096 JLINK_GetOEMString(...)
T4100 000:095.099 JLINK_GetFirmwareString(...)
T4100 000:095.102 - 0.003ms 
T4100 000:099.459 JLINK_GetDLLVersion()
T4100 000:099.470 - 0.011ms returns 87000
T4100 000:099.474 JLINK_GetCompileDateTime()
T4100 000:099.477 - 0.002ms 
T4100 000:100.886 JLINK_GetFirmwareString(...)
T4100 000:100.896 - 0.009ms 
T4100 000:102.309 JLINK_GetHardwareVersion()
T4100 000:102.318 - 0.008ms returns 70000
T4100 000:103.732 JLINK_GetSN()
T4100 000:103.741 - 0.009ms returns 20090928
T4100 000:105.148 JLINK_GetOEMString(...)
T4100 000:109.787 JLINK_TIF_Select(JLINKARM_TIF_SWD)
T4100 000:110.156 - 0.372ms returns 0x00
T4100 000:110.163 JLINK_HasError()
T4100 000:110.173 JLINK_SetSpeed(3000)
T4100 000:110.270 - 0.097ms 
T4100 000:110.275 JLINK_GetId()
T4100 000:111.849   InitTarget() start
T4100 000:111.860    J-Link Script File: Executing InitTarget()
T4100 000:113.474   SWD selected. Executing JTAG -> SWD switching sequence.
T4100 000:117.778   DAP initialized successfully.
T4100 000:127.468   InitTarget() end - Took 13.9ms
T4100 000:129.585   Found SW-DP with ID 0x1BA01477
T4100 000:132.528   Old FW that does not support reading DPIDR via DAP jobs
T4100 000:136.788   DPv0 detected
T4100 000:138.263   CoreSight SoC-400 or earlier
T4100 000:141.475   Scanning AP map to find all available APs
T4100 000:144.825   AP[1]: Stopped AP scan as end of AP map has been reached
T4100 000:146.317   AP[0]: AHB-AP (IDR: 0x14770011, ADDR: 0x00000000)
T4100 000:147.766   Iterating through AP map to find AHB-AP to use
T4100 000:152.334   AP[0]: Core found
T4100 000:153.843   AP[0]: AHB-AP ROM base: 0xE00FF000
T4100 000:158.006   CPUID register: 0x411FC231. Implementer code: 0x41 (ARM)
T4100 000:159.546   Found Cortex-M3 r1p1, Little endian.
T4100 000:159.800   -- Max. mem block: 0x00002C18
T4100 000:160.195   CPU_ReadMem(4 bytes @ 0xE000EDF0)
T4100 000:160.600   CPU_ReadMem(4 bytes @ 0xE0002000)
T4100 000:162.471   FPUnit: 6 code (BP) slots and 2 literal slots
T4100 000:162.489   CPU_ReadMem(4 bytes @ 0xE000EDFC)
T4100 000:162.876   CPU_WriteMem(4 bytes @ 0xE000EDFC)
T4100 000:163.370   CPU_ReadMem(4 bytes @ 0xE0001000)
T4100 000:163.750   CPU_WriteMem(4 bytes @ 0xE0001000)
T4100 000:164.149   CPU_ReadMem(4 bytes @ 0xE000ED88)
T4100 000:164.596   CPU_WriteMem(4 bytes @ 0xE000ED88)
T4100 000:164.991   CPU_ReadMem(4 bytes @ 0xE000ED88)
T4100 000:165.371   CPU_WriteMem(4 bytes @ 0xE000ED88)
T4100 000:167.357   CoreSight components:
T4100 000:168.794   ROMTbl[0] @ E00FF000
T4100 000:168.807   CPU_ReadMem(64 bytes @ 0xE00FF000)
T4100 000:169.952   CPU_ReadMem(32 bytes @ 0xE000EFE0)
T4100 000:173.240   [0][0]: E000E000 CID B105E00D PID 001BB000 SCS
T4100 000:173.259   CPU_ReadMem(32 bytes @ 0xE0001FE0)
T4100 000:175.509   [0][1]: E0001000 CID B105E00D PID 001BB002 DWT
T4100 000:175.524   CPU_ReadMem(32 bytes @ 0xE0002FE0)
T4100 000:177.626   [0][2]: E0002000 CID B105E00D PID 000BB003 FPB
T4100 000:177.638   CPU_ReadMem(32 bytes @ 0xE0000FE0)
T4100 000:179.782   [0][3]: E0000000 CID B105E00D PID 001BB001 ITM
T4100 000:179.800   CPU_ReadMem(32 bytes @ 0xE0040FE0)
T4100 000:181.963   [0][4]: E0040000 CID B105900D PID 001BB923 TPIU-Lite
T4100 000:181.976   CPU_ReadMem(32 bytes @ 0xE0041FE0)
T4100 000:184.081   [0][5]: E0041000 CID B105900D PID 101BB924 ETM-M3
T4100 000:184.417 - 74.141ms returns 0x1BA01477
T4100 000:184.431 JLINK_GetDLLVersion()
T4100 000:184.434 - 0.002ms returns 87000
T4100 000:184.437 JLINK_CORE_GetFound()
T4100 000:184.440 - 0.002ms returns 0x30000FF
T4100 000:184.444 JLINK_GetDebugInfo(0x100 = JLINKARM_ROM_TABLE_ADDR_INDEX)
T4100 000:184.453   Value=0xE00FF000
T4100 000:184.457 - 0.013ms returns 0
T4100 000:187.265 JLINK_GetDebugInfo(0x100 = JLINKARM_ROM_TABLE_ADDR_INDEX)
T4100 000:187.278   Value=0xE00FF000
T4100 000:187.282 - 0.016ms returns 0
T4100 000:187.286 JLINK_GetDebugInfo(0x101 = JLINKARM_DEBUG_INFO_ETM_ADDR_INDEX)
T4100 000:187.289   Value=0xE0041000
T4100 000:187.292 - 0.006ms returns 0
T4100 000:187.296 JLINK_ReadMemEx(0xE0041FD0, 0x20 Bytes, Flags = 0x02000004)
T4100 000:187.324   CPU_ReadMem(32 bytes @ 0xE0041FD0)
T4100 000:188.008   Data:  04 00 00 00 00 00 00 00 00 00 00 00 00 00 00 00 ...
T4100 000:188.014 - 0.717ms returns 32 (0x20)
T4100 000:188.018 JLINK_GetDebugInfo(0x102 = JLINKARM_DEBUG_INFO_MTB_ADDR_INDEX)
T4100 000:188.021   Value=0x00000000
T4100 000:188.025 - 0.006ms returns 0
T4100 000:188.028 JLINK_GetDebugInfo(0x103 = JLINKARM_DEBUG_INFO_TPIU_ADDR_INDEX)
T4100 000:188.031   Value=0xE0040000
T4100 000:188.034 - 0.006ms returns 0
T4100 000:188.038 JLINK_GetDebugInfo(0x104 = JLINKARM_DEBUG_INFO_ITM_ADDR_INDEX)
T4100 000:188.040   Value=0xE0000000
T4100 000:188.044 - 0.006ms returns 0
T4100 000:188.047 JLINK_GetDebugInfo(0x105 = JLINKARM_DEBUG_INFO_DWT_ADDR_INDEX)
T4100 000:188.049   Value=0xE0001000
T4100 000:188.053 - 0.006ms returns 0
T4100 000:188.056 JLINK_GetDebugInfo(0x106 = JLINKARM_DEBUG_INFO_FPB_ADDR_INDEX)
T4100 000:188.058   Value=0xE0002000
T4100 000:188.062 - 0.006ms returns 0
T4100 000:188.066 JLINK_GetDebugInfo(0x107 = JLINKARM_DEBUG_INFO_NVIC_ADDR_INDEX)
T4100 000:188.068   Value=0xE000E000
T4100 000:188.072 - 0.006ms returns 0
T4100 000:188.075 JLINK_GetDebugInfo(0x10C = JLINKARM_DEBUG_INFO_DBG_ADDR_INDEX)
T4100 000:188.077   Value=0xE000EDF0
T4100 000:188.081 - 0.006ms returns 0
T4100 000:188.084 JLINK_GetDebugInfo(0x01 = Unknown)
T4100 000:188.086   Value=0x00000000
T4100 000:188.090 - 0.006ms returns 0
T4100 000:188.093 JLINK_ReadMemU32(0xE000ED00, 0x1 Items)
T4100 000:188.098   CPU_ReadMem(4 bytes @ 0xE000ED00)
T4100 000:188.480   Data:  31 C2 1F 41
T4100 000:188.497   Debug reg: CPUID
T4100 000:188.501 - 0.408ms returns 1 (0x1)
T4100 000:188.507 JLINK_GetDebugInfo(0x10F = JLINKARM_DEBUG_INFO_HAS_CORTEX_M_SECURITY_EXT_INDEX)
T4100 000:188.510   Value=0x00000000
T4100 000:188.514 - 0.006ms returns 0
T4100 000:188.517 JLINK_HasError()
T4100 000:188.521 JLINK_SetResetType(JLINKARM_CM3_RESET_TYPE_NORMAL)
T4100 000:188.524 - 0.002ms returns JLINKARM_CM3_RESET_TYPE_NORMAL
T4100 000:188.527 JLINK_Reset()
T4100 000:188.534   JLINK_GetResetTypeDesc
T4100 000:188.536   - 0.002ms 
T4100 000:190.506   Reset type: NORMAL (https://wiki.segger.com/J-Link_Reset_Strategies)
T4100 000:190.533   CPU is running
T4100 000:190.540   CPU_WriteMem(4 bytes @ 0xE000EDF0)
T4100 000:190.977   CPU is running
T4100 000:190.983   CPU_WriteMem(4 bytes @ 0xE000EDFC)
T4100 000:192.953   Reset: Halt core after reset via DEMCR.VC_CORERESET.
T4100 000:194.787   Reset: Reset device via AIRCR.SYSRESETREQ.
T4100 000:194.800   CPU is running
T4100 000:194.806   CPU_WriteMem(4 bytes @ 0xE000ED0C)
T4100 000:247.671   CPU_ReadMem(4 bytes @ 0xE000EDF0)
T4100 000:248.291   CPU_ReadMem(4 bytes @ 0xE000EDF0)
T4100 000:251.894   CPU_WriteMem(4 bytes @ 0xE000EDFC)
T4100 000:257.697   CPU_ReadMem(4 bytes @ 0xE000EDF0)
T4100 000:261.412   CPU_WriteMem(4 bytes @ 0xE0002000)
T4100 000:261.908   CPU_ReadMem(4 bytes @ 0xE000EDFC)
T4100 000:262.347   CPU_ReadMem(4 bytes @ 0xE0001000)
T4100 000:262.795 - 74.266ms 
T4100 000:262.829 JLINK_Halt()
T4100 000:262.837 - 0.008ms returns 0x00
T4100 000:262.918 JLINK_ReadMemU32(0xE000EDF0, 0x1 Items)
T4100 000:262.936   CPU_ReadMem(4 bytes @ 0xE000EDF0)
T4100 000:263.389   Data:  03 00 03 00
T4100 000:263.401   Debug reg: DHCSR
T4100 000:263.412 - 0.494ms returns 1 (0x1)
T4100 000:263.423 JLINK_WriteU32(0xE000EDF0, 0xA05F0003)
T4100 000:263.430   Debug reg: DHCSR
T4100 000:264.001   CPU_WriteMem(4 bytes @ 0xE000EDF0)
T4100 000:264.513 - 1.089ms returns 0 (0x00000000)
T4100 000:264.526 JLINK_WriteU32(0xE000EDFC, 0x01000000)
T4100 000:264.533   Debug reg: DEMCR
T4100 000:264.548   CPU_WriteMem(4 bytes @ 0xE000EDFC)
T4100 000:265.028 - 0.501ms returns 0 (0x00000000)
T4100 000:273.912 JLINK_GetHWStatus(...)
T4100 000:274.075 - 0.166ms returns 0
T4100 000:279.195 JLINK_GetNumBPUnits(Type = 0xFFFFFF00)
T4100 000:279.209 - 0.014ms returns 0x06
T4100 000:279.213 JLINK_GetNumBPUnits(Type = 0xF0)
T4100 000:279.215 - 0.002ms returns 0x2000
T4100 000:279.218 JLINK_GetNumWPUnits()
T4100 000:279.221 - 0.002ms returns 4
T4100 000:283.339 JLINK_GetSpeed()
T4100 000:283.349 - 0.010ms returns 2667
T4100 000:286.055 JLINK_ReadMemU32(0xE000E004, 0x1 Items)
T4100 000:286.072   CPU_ReadMem(4 bytes @ 0xE000E004)
T4100 000:286.477   Data:  01 00 00 00
T4100 000:286.482 - 0.427ms returns 1 (0x1)
T4100 000:286.487 JLINK_ReadMemU32(0xE000E004, 0x1 Items)
T4100 000:286.491   CPU_ReadMem(4 bytes @ 0xE000E004)
T4100 000:286.869   Data:  01 00 00 00
T4100 000:286.873 - 0.386ms returns 1 (0x1)
T4100 000:286.877 JLINK_WriteMemEx(0xE0001000, 0x0000001C Bytes, Flags = 0x02000004)
T4100 000:286.880   Data:  01 00 00 00 00 00 00 00 00 00 00 00 00 00 00 00 ...
T4100 000:286.887   CPU_WriteMem(28 bytes @ 0xE0001000)
T4100 000:287.545 - 0.668ms returns 0x1C
T4100 000:287.551 JLINK_Halt()
T4100 000:287.554 - 0.002ms returns 0x00
T4100 000:287.557 JLINK_IsHalted()
T4100 000:287.561 - 0.003ms returns TRUE
T4100 000:290.634 JLINK_WriteMem(0x20000000, 0x164 Bytes, ...)
T4100 000:290.643   Data:  00 BE 0A E0 0D 78 2D 06 68 40 08 24 40 00 00 D3 ...
T4100 000:290.868   CPU_WriteMem(356 bytes @ 0x20000000)
T4100 000:295.604 - 4.970ms returns 0x164
T4100 000:295.632 JLINK_HasError()
T4100 000:295.637 JLINK_WriteReg(R0, 0x08000000)
T4100 000:295.641 - 0.004ms returns 0
T4100 000:295.644 JLINK_WriteReg(R1, 0x007A1200)
T4100 000:295.647 - 0.002ms returns 0
T4100 000:295.650 JLINK_WriteReg(R2, 0x00000001)
T4100 000:295.652 - 0.002ms returns 0
T4100 000:295.655 JLINK_WriteReg(R3, 0x00000000)
T4100 000:295.658 - 0.002ms returns 0
T4100 000:295.664 JLINK_WriteReg(R4, 0x00000000)
T4100 000:295.668 - 0.003ms returns 0
T4100 000:295.671 JLINK_WriteReg(R5, 0x00000000)
T4100 000:295.674 - 0.002ms returns 0
T4100 000:295.677 JLINK_WriteReg(R6, 0x00000000)
T4100 000:295.679 - 0.002ms returns 0
T4100 000:295.682 JLINK_WriteReg(R7, 0x00000000)
T4100 000:295.685 - 0.002ms returns 0
T4100 000:295.699 JLINK_WriteReg(R8, 0x00000000)
T4100 000:295.701 - 0.013ms returns 0
T4100 000:295.705 JLINK_WriteReg(R9, 0x20000160)
T4100 000:295.708 - 0.003ms returns 0
T4100 000:295.711 JLINK_WriteReg(R10, 0x00000000)
T4100 000:295.713 - 0.002ms returns 0
T4100 000:295.716 JLINK_WriteReg(R11, 0x00000000)
T4100 000:295.719 - 0.002ms returns 0
T4100 000:295.722 JLINK_WriteReg(R12, 0x00000000)
T4100 000:295.724 - 0.002ms returns 0
T4100 000:295.727 JLINK_WriteReg(R13 (SP), 0x20001000)
T4100 000:295.731 - 0.003ms returns 0
T4100 000:295.734 JLINK_WriteReg(R14, 0x20000001)
T4100 000:295.736 - 0.002ms returns 0
T4100 000:295.739 JLINK_WriteReg(R15 (PC), 0x20000038)
T4100 000:295.742 - 0.002ms returns 0
T4100 000:295.745 JLINK_WriteReg(XPSR, 0x01000000)
T4100 000:295.748 - 0.002ms returns 0
T4100 000:295.750 JLINK_WriteReg(MSP, 0x20001000)
T4100 000:295.753 - 0.002ms returns 0
T4100 000:295.756 JLINK_WriteReg(PSP, 0x20001000)
T4100 000:295.758 - 0.002ms returns 0
T4100 000:295.761 JLINK_WriteReg(CFBP, 0x00000000)
T4100 000:295.764 - 0.002ms returns 0
T4100 000:295.767 JLINK_SetBPEx(Addr = 0x20000000, Type = 0xFFFFFFF2)
T4100 000:295.773   CPU_ReadMem(2 bytes @ 0x20000000)
T4100 000:296.202 - 0.434ms returns 0x00000001
T4100 000:296.206 JLINK_Go()
T4100 000:296.213   CPU_WriteMem(2 bytes @ 0x20000000)
T4100 000:296.630   CPU_ReadMem(4 bytes @ 0xE0001000)
T4100 000:297.104   CPU_WriteMem(4 bytes @ 0xE0002008)
T4100 000:297.117   CPU_WriteMem(4 bytes @ 0xE000200C)
T4100 000:297.120   CPU_WriteMem(4 bytes @ 0xE0002010)
T4100 000:297.124   CPU_WriteMem(4 bytes @ 0xE0002014)
T4100 000:297.128   CPU_WriteMem(4 bytes @ 0xE0002018)
T4100 000:297.132   CPU_WriteMem(4 bytes @ 0xE000201C)
T4100 000:299.374   CPU_WriteMem(4 bytes @ 0xE0001004)
T4100 000:304.579   Memory map 'after startup completion point' is active
T4100 000:304.591 - 8.384ms 
T4100 000:304.596 JLINK_IsHalted()
T4100 000:307.639   CPU_ReadMem(2 bytes @ 0x20000000)
T4100 000:308.069 - 3.472ms returns TRUE
T4100 000:308.075 JLINK_ReadReg(R15 (PC))
T4100 000:308.079 - 0.004ms returns 0x20000000
T4100 000:308.083 JLINK_ClrBPEx(BPHandle = 0x00000001)
T4100 000:308.086 - 0.003ms returns 0x00
T4100 000:308.089 JLINK_ReadReg(R0)
T4100 000:308.092 - 0.003ms returns 0x00000000
T4100 000:308.288 JLINK_HasError()
T4100 000:308.294 JLINK_WriteReg(R0, 0x08000000)
T4100 000:308.298 - 0.003ms returns 0
T4100 000:308.301 JLINK_WriteReg(R1, 0x00000800)
T4100 000:308.304 - 0.002ms returns 0
T4100 000:308.307 JLINK_WriteReg(R2, 0x000000FF)
T4100 000:308.309 - 0.002ms returns 0
T4100 000:308.312 JLINK_WriteReg(R3, 0x00000000)
T4100 000:308.315 - 0.002ms returns 0
T4100 000:308.318 JLINK_WriteReg(R4, 0x00000000)
T4100 000:308.321 - 0.002ms returns 0
T4100 000:308.324 JLINK_WriteReg(R5, 0x00000000)
T4100 000:308.326 - 0.002ms returns 0
T4100 000:308.329 JLINK_WriteReg(R6, 0x00000000)
T4100 000:308.332 - 0.002ms returns 0
T4100 000:308.335 JLINK_WriteReg(R7, 0x00000000)
T4100 000:308.337 - 0.002ms returns 0
T4100 000:308.340 JLINK_WriteReg(R8, 0x00000000)
T4100 000:308.343 - 0.002ms returns 0
T4100 000:308.346 JLINK_WriteReg(R9, 0x20000160)
T4100 000:308.348 - 0.002ms returns 0
T4100 000:308.351 JLINK_WriteReg(R10, 0x00000000)
T4100 000:308.354 - 0.002ms returns 0
T4100 000:308.357 JLINK_WriteReg(R11, 0x00000000)
T4100 000:308.360 - 0.003ms returns 0
T4100 000:308.363 JLINK_WriteReg(R12, 0x00000000)
T4100 000:308.366 - 0.002ms returns 0
T4100 000:308.369 JLINK_WriteReg(R13 (SP), 0x20001000)
T4100 000:308.372 - 0.003ms returns 0
T4100 000:308.375 JLINK_WriteReg(R14, 0x20000001)
T4100 000:308.377 - 0.002ms returns 0
T4100 000:308.380 JLINK_WriteReg(R15 (PC), 0x20000020)
T4100 000:308.429 - 0.048ms returns 0
T4100 000:308.435 JLINK_WriteReg(XPSR, 0x01000000)
T4100 000:308.437 - 0.003ms returns 0
T4100 000:308.440 JLINK_WriteReg(MSP, 0x20001000)
T4100 000:308.443 - 0.002ms returns 0
T4100 000:308.446 JLINK_WriteReg(PSP, 0x20001000)
T4100 000:308.448 - 0.002ms returns 0
T4100 000:308.451 JLINK_WriteReg(CFBP, 0x00000000)
T4100 000:308.454 - 0.002ms returns 0
T4100 000:308.457 JLINK_SetBPEx(Addr = 0x20000000, Type = 0xFFFFFFF2)
T4100 000:308.461 - 0.003ms returns 0x00000002
T4100 000:308.464 JLINK_Go()
T4100 000:308.471   CPU_ReadMem(4 bytes @ 0xE0001000)
T4100 000:311.817 - 3.352ms 
T4100 000:311.825 JLINK_IsHalted()
T4100 000:314.863   CPU_ReadMem(2 bytes @ 0x20000000)
T4100 000:315.346 - 3.521ms returns TRUE
T4100 000:315.355 JLINK_ReadReg(R15 (PC))
T4100 000:315.359 - 0.004ms returns 0x20000000
T4100 000:315.385 JLINK_ClrBPEx(BPHandle = 0x00000002)
T4100 000:315.389 - 0.003ms returns 0x00
T4100 000:315.392 JLINK_ReadReg(R0)
T4100 000:315.395 - 0.002ms returns 0x00000001
T4100 000:315.399 JLINK_HasError()
T4100 000:315.402 JLINK_WriteReg(R0, 0x08000000)
T4100 000:315.405 - 0.002ms returns 0
T4100 000:315.408 JLINK_WriteReg(R1, 0x00000800)
T4100 000:315.411 - 0.002ms returns 0
T4100 000:315.414 JLINK_WriteReg(R2, 0x000000FF)
T4100 000:315.416 - 0.002ms returns 0
T4100 000:315.419 JLINK_WriteReg(R3, 0x00000000)
T4100 000:315.422 - 0.002ms returns 0
T4100 000:315.425 JLINK_WriteReg(R4, 0x00000000)
T4100 000:315.427 - 0.002ms returns 0
T4100 000:315.430 JLINK_WriteReg(R5, 0x00000000)
T4100 000:315.433 - 0.002ms returns 0
T4100 000:315.436 JLINK_WriteReg(R6, 0x00000000)
T4100 000:315.438 - 0.002ms returns 0
T4100 000:315.442 JLINK_WriteReg(R7, 0x00000000)
T4100 000:315.444 - 0.002ms returns 0
T4100 000:315.447 JLINK_WriteReg(R8, 0x00000000)
T4100 000:315.451 - 0.003ms returns 0
T4100 000:315.454 JLINK_WriteReg(R9, 0x20000160)
T4100 000:315.457 - 0.002ms returns 0
T4100 000:315.460 JLINK_WriteReg(R10, 0x00000000)
T4100 000:315.462 - 0.002ms returns 0
T4100 000:315.465 JLINK_WriteReg(R11, 0x00000000)
T4100 000:315.468 - 0.002ms returns 0
T4100 000:315.471 JLINK_WriteReg(R12, 0x00000000)
T4100 000:315.473 - 0.002ms returns 0
T4100 000:315.476 JLINK_WriteReg(R13 (SP), 0x20001000)
T4100 000:315.479 - 0.003ms returns 0
T4100 000:315.482 JLINK_WriteReg(R14, 0x20000001)
T4100 000:315.485 - 0.002ms returns 0
T4100 000:315.488 JLINK_WriteReg(R15 (PC), 0x200000B6)
T4100 000:315.490 - 0.002ms returns 0
T4100 000:315.494 JLINK_WriteReg(XPSR, 0x01000000)
T4100 000:315.496 - 0.002ms returns 0
T4100 000:315.499 JLINK_WriteReg(MSP, 0x20001000)
T4100 000:315.502 - 0.002ms returns 0
T4100 000:315.505 JLINK_WriteReg(PSP, 0x20001000)
T4100 000:315.507 - 0.002ms returns 0
T4100 000:315.510 JLINK_WriteReg(CFBP, 0x00000000)
T4100 000:315.513 - 0.002ms returns 0
T4100 000:315.516 JLINK_SetBPEx(Addr = 0x20000000, Type = 0xFFFFFFF2)
T4100 000:315.519 - 0.003ms returns 0x00000003
T4100 000:315.522 JLINK_Go()
T4100 000:315.528   CPU_ReadMem(4 bytes @ 0xE0001000)
T4100 000:318.856 - 3.334ms 
T4100 000:318.860 JLINK_IsHalted()
T4100 000:319.269 - 0.408ms returns FALSE
T4100 000:319.272 JLINK_HasError()
T4100 000:327.326 JLINK_IsHalted()
T4100 000:327.774 - 0.448ms returns FALSE
T4100 000:327.779 JLINK_HasError()
T4100 000:329.311 JLINK_IsHalted()
T4100 000:329.717 - 0.405ms returns FALSE
T4100 000:329.721 JLINK_HasError()
T4100 000:331.337 JLINK_IsHalted()
T4100 000:331.715 - 0.377ms returns FALSE
T4100 000:331.719 JLINK_HasError()
T4100 000:333.314 JLINK_IsHalted()
T4100 000:333.700 - 0.387ms returns FALSE
T4100 000:333.706 JLINK_HasError()
T4100 000:335.327 JLINK_IsHalted()
T4100 000:335.722 - 0.395ms returns FALSE
T4100 000:335.727 JLINK_HasError()
T4100 000:337.351 JLINK_IsHalted()
T4100 000:337.746 - 0.396ms returns FALSE
T4100 000:337.750 JLINK_HasError()
T4100 000:339.765 JLINK_IsHalted()
T4100 000:340.164 - 0.398ms returns FALSE
T4100 000:340.176 JLINK_HasError()
T4100 000:344.302 JLINK_IsHalted()
T4100 000:347.388   CPU_ReadMem(2 bytes @ 0x20000000)
T4100 000:347.818 - 3.517ms returns TRUE
T4100 000:347.823 JLINK_ReadReg(R15 (PC))
T4100 000:347.827 - 0.004ms returns 0x20000000
T4100 000:347.831 JLINK_ClrBPEx(BPHandle = 0x00000003)
T4100 000:347.834 - 0.003ms returns 0x00
T4100 000:347.837 JLINK_ReadReg(R0)
T4100 000:347.840 - 0.002ms returns 0x00000000
T4100 000:348.136 JLINK_HasError()
T4100 000:348.144 JLINK_WriteReg(R0, 0x08000800)
T4100 000:348.148 - 0.003ms returns 0
T4100 000:348.151 JLINK_WriteReg(R1, 0x00000800)
T4100 000:348.154 - 0.002ms returns 0
T4100 000:348.157 JLINK_WriteReg(R2, 0x000000FF)
T4100 000:348.159 - 0.002ms returns 0
T4100 000:348.162 JLINK_WriteReg(R3, 0x00000000)
T4100 000:348.165 - 0.002ms returns 0
T4100 000:348.168 JLINK_WriteReg(R4, 0x00000000)
T4100 000:348.170 - 0.002ms returns 0
T4100 000:348.173 JLINK_WriteReg(R5, 0x00000000)
T4100 000:348.176 - 0.002ms returns 0
T4100 000:348.180 JLINK_WriteReg(R6, 0x00000000)
T4100 000:348.182 - 0.002ms returns 0
T4100 000:348.185 JLINK_WriteReg(R7, 0x00000000)
T4100 000:348.188 - 0.002ms returns 0
T4100 000:348.191 JLINK_WriteReg(R8, 0x00000000)
T4100 000:348.193 - 0.002ms returns 0
T4100 000:348.196 JLINK_WriteReg(R9, 0x20000160)
T4100 000:348.199 - 0.002ms returns 0
T4100 000:348.202 JLINK_WriteReg(R10, 0x00000000)
T4100 000:348.204 - 0.002ms returns 0
T4100 000:348.207 JLINK_WriteReg(R11, 0x00000000)
T4100 000:348.210 - 0.002ms returns 0
T4100 000:348.213 JLINK_WriteReg(R12, 0x00000000)
T4100 000:348.215 - 0.002ms returns 0
T4100 000:348.219 JLINK_WriteReg(R13 (SP), 0x20001000)
T4100 000:348.222 - 0.003ms returns 0
T4100 000:348.225 JLINK_WriteReg(R14, 0x20000001)
T4100 000:348.227 - 0.002ms returns 0
T4100 000:348.230 JLINK_WriteReg(R15 (PC), 0x20000020)
T4100 000:348.233 - 0.002ms returns 0
T4100 000:348.236 JLINK_WriteReg(XPSR, 0x01000000)
T4100 000:348.239 - 0.002ms returns 0
T4100 000:348.242 JLINK_WriteReg(MSP, 0x20001000)
T4100 000:348.244 - 0.002ms returns 0
T4100 000:348.248 JLINK_WriteReg(PSP, 0x20001000)
T4100 000:348.251 - 0.003ms returns 0
T4100 000:348.254 JLINK_WriteReg(CFBP, 0x00000000)
T4100 000:348.256 - 0.002ms returns 0
T4100 000:348.260 JLINK_SetBPEx(Addr = 0x20000000, Type = 0xFFFFFFF2)
T4100 000:348.264 - 0.003ms returns 0x00000004
T4100 000:348.267 JLINK_Go()
T4100 000:348.274   CPU_ReadMem(4 bytes @ 0xE0001000)
T4100 000:351.601 - 3.334ms 
T4100 000:351.613 JLINK_IsHalted()
T4100 000:354.610   CPU_ReadMem(2 bytes @ 0x20000000)
T4100 000:355.092 - 3.479ms returns TRUE
T4100 000:355.097 JLINK_ReadReg(R15 (PC))
T4100 000:355.101 - 0.003ms returns 0x20000000
T4100 000:355.104 JLINK_ClrBPEx(BPHandle = 0x00000004)
T4100 000:355.107 - 0.002ms returns 0x00
T4100 000:355.110 JLINK_ReadReg(R0)
T4100 000:355.112 - 0.002ms returns 0x00000001
T4100 000:355.116 JLINK_HasError()
T4100 000:355.119 JLINK_WriteReg(R0, 0x08000800)
T4100 000:355.122 - 0.002ms returns 0
T4100 000:355.125 JLINK_WriteReg(R1, 0x00000800)
T4100 000:355.127 - 0.002ms returns 0
T4100 000:355.130 JLINK_WriteReg(R2, 0x000000FF)
T4100 000:355.133 - 0.002ms returns 0
T4100 000:355.136 JLINK_WriteReg(R3, 0x00000000)
T4100 000:355.138 - 0.002ms returns 0
T4100 000:355.141 JLINK_WriteReg(R4, 0x00000000)
T4100 000:355.144 - 0.002ms returns 0
T4100 000:355.147 JLINK_WriteReg(R5, 0x00000000)
T4100 000:355.149 - 0.002ms returns 0
T4100 000:355.152 JLINK_WriteReg(R6, 0x00000000)
T4100 000:355.155 - 0.002ms returns 0
T4100 000:355.158 JLINK_WriteReg(R7, 0x00000000)
T4100 000:355.160 - 0.002ms returns 0
T4100 000:355.163 JLINK_WriteReg(R8, 0x00000000)
T4100 000:355.166 - 0.002ms returns 0
T4100 000:355.169 JLINK_WriteReg(R9, 0x20000160)
T4100 000:355.176 - 0.006ms returns 0
T4100 000:355.179 JLINK_WriteReg(R10, 0x00000000)
T4100 000:355.181 - 0.002ms returns 0
T4100 000:355.184 JLINK_WriteReg(R11, 0x00000000)
T4100 000:355.187 - 0.002ms returns 0
T4100 000:355.190 JLINK_WriteReg(R12, 0x00000000)
T4100 000:355.192 - 0.002ms returns 0
T4100 000:355.195 JLINK_WriteReg(R13 (SP), 0x20001000)
T4100 000:355.198 - 0.002ms returns 0
T4100 000:355.205 JLINK_WriteReg(R14, 0x20000001)
T4100 000:355.208 - 0.002ms returns 0
T4100 000:355.211 JLINK_WriteReg(R15 (PC), 0x200000B6)
T4100 000:355.213 - 0.002ms returns 0
T4100 000:355.216 JLINK_WriteReg(XPSR, 0x01000000)
T4100 000:355.219 - 0.002ms returns 0
T4100 000:355.222 JLINK_WriteReg(MSP, 0x20001000)
T4100 000:355.224 - 0.002ms returns 0
T4100 000:355.227 JLINK_WriteReg(PSP, 0x20001000)
T4100 000:355.230 - 0.002ms returns 0
T4100 000:355.233 JLINK_WriteReg(CFBP, 0x00000000)
T4100 000:355.235 - 0.002ms returns 0
T4100 000:355.239 JLINK_SetBPEx(Addr = 0x20000000, Type = 0xFFFFFFF2)
T4100 000:355.241 - 0.003ms returns 0x00000005
T4100 000:355.244 JLINK_Go()
T4100 000:355.250   CPU_ReadMem(4 bytes @ 0xE0001000)
T4100 000:358.754 - 3.509ms 
T4100 000:358.767 JLINK_IsHalted()
T4100 000:359.106 - 0.338ms returns FALSE
T4100 000:359.110 JLINK_HasError()
T4100 000:361.323 JLINK_IsHalted()
T4100 000:361.820 - 0.498ms returns FALSE
T4100 000:361.829 JLINK_HasError()
T4100 000:363.304 JLINK_IsHalted()
T4100 000:363.744 - 0.440ms returns FALSE
T4100 000:363.748 JLINK_HasError()
T4100 000:365.275 JLINK_IsHalted()
T4100 000:365.675 - 0.400ms returns FALSE
T4100 000:365.679 JLINK_HasError()
T4100 000:367.280 JLINK_IsHalted()
T4100 000:367.678 - 0.397ms returns FALSE
T4100 000:367.682 JLINK_HasError()
T4100 000:369.307 JLINK_IsHalted()
T4100 000:369.766 - 0.460ms returns FALSE
T4100 000:369.770 JLINK_HasError()
T4100 000:371.355 JLINK_IsHalted()
T4100 000:371.768 - 0.412ms returns FALSE
T4100 000:371.773 JLINK_HasError()
T4100 000:376.290 JLINK_IsHalted()
T4100 000:376.738 - 0.447ms returns FALSE
T4100 000:376.753 JLINK_HasError()
T4100 000:378.787 JLINK_IsHalted()
T4100 000:379.276 - 0.489ms returns FALSE
T4100 000:379.281 JLINK_HasError()
T4100 000:380.789 JLINK_IsHalted()
T4100 000:383.866   CPU_ReadMem(2 bytes @ 0x20000000)
T4100 000:384.350 - 3.560ms returns TRUE
T4100 000:384.355 JLINK_ReadReg(R15 (PC))
T4100 000:384.359 - 0.004ms returns 0x20000000
T4100 000:384.363 JLINK_ClrBPEx(BPHandle = 0x00000005)
T4100 000:384.366 - 0.003ms returns 0x00
T4100 000:384.369 JLINK_ReadReg(R0)
T4100 000:384.373 - 0.003ms returns 0x00000000
T4100 000:384.682 JLINK_HasError()
T4100 000:384.689 JLINK_WriteReg(R0, 0x08001000)
T4100 000:384.692 - 0.003ms returns 0
T4100 000:384.696 JLINK_WriteReg(R1, 0x00000800)
T4100 000:384.698 - 0.002ms returns 0
T4100 000:384.701 JLINK_WriteReg(R2, 0x000000FF)
T4100 000:384.704 - 0.002ms returns 0
T4100 000:384.707 JLINK_WriteReg(R3, 0x00000000)
T4100 000:384.710 - 0.002ms returns 0
T4100 000:384.713 JLINK_WriteReg(R4, 0x00000000)
T4100 000:384.715 - 0.002ms returns 0
T4100 000:384.718 JLINK_WriteReg(R5, 0x00000000)
T4100 000:384.721 - 0.002ms returns 0
T4100 000:384.724 JLINK_WriteReg(R6, 0x00000000)
T4100 000:384.726 - 0.002ms returns 0
T4100 000:384.729 JLINK_WriteReg(R7, 0x00000000)
T4100 000:384.732 - 0.002ms returns 0
T4100 000:384.735 JLINK_WriteReg(R8, 0x00000000)
T4100 000:384.737 - 0.002ms returns 0
T4100 000:384.740 JLINK_WriteReg(R9, 0x20000160)
T4100 000:384.743 - 0.002ms returns 0
T4100 000:384.746 JLINK_WriteReg(R10, 0x00000000)
T4100 000:384.749 - 0.002ms returns 0
T4100 000:384.752 JLINK_WriteReg(R11, 0x00000000)
T4100 000:384.755 - 0.003ms returns 0
T4100 000:384.758 JLINK_WriteReg(R12, 0x00000000)
T4100 000:384.760 - 0.002ms returns 0
T4100 000:384.763 JLINK_WriteReg(R13 (SP), 0x20001000)
T4100 000:384.766 - 0.003ms returns 0
T4100 000:384.769 JLINK_WriteReg(R14, 0x20000001)
T4100 000:384.772 - 0.002ms returns 0
T4100 000:384.775 JLINK_WriteReg(R15 (PC), 0x20000020)
T4100 000:384.778 - 0.002ms returns 0
T4100 000:384.781 JLINK_WriteReg(XPSR, 0x01000000)
T4100 000:384.783 - 0.002ms returns 0
T4100 000:384.786 JLINK_WriteReg(MSP, 0x20001000)
T4100 000:384.789 - 0.002ms returns 0
T4100 000:384.792 JLINK_WriteReg(PSP, 0x20001000)
T4100 000:384.795 - 0.002ms returns 0
T4100 000:384.798 JLINK_WriteReg(CFBP, 0x00000000)
T4100 000:384.800 - 0.002ms returns 0
T4100 000:384.803 JLINK_SetBPEx(Addr = 0x20000000, Type = 0xFFFFFFF2)
T4100 000:384.813 - 0.009ms returns 0x00000006
T4100 000:384.816 JLINK_Go()
T4100 000:384.824   CPU_ReadMem(4 bytes @ 0xE0001000)
T4100 000:388.150 - 3.334ms 
T4100 000:388.157 JLINK_IsHalted()
T4100 000:391.199   CPU_ReadMem(2 bytes @ 0x20000000)
T4100 000:391.622 - 3.464ms returns TRUE
T4100 000:391.627 JLINK_ReadReg(R15 (PC))
T4100 000:391.631 - 0.004ms returns 0x20000000
T4100 000:391.635 JLINK_ClrBPEx(BPHandle = 0x00000006)
T4100 000:391.638 - 0.003ms returns 0x00
T4100 000:391.641 JLINK_ReadReg(R0)
T4100 000:391.644 - 0.002ms returns 0x00000001
T4100 000:391.647 JLINK_HasError()
T4100 000:391.651 JLINK_WriteReg(R0, 0x08001000)
T4100 000:391.654 - 0.003ms returns 0
T4100 000:391.657 JLINK_WriteReg(R1, 0x00000800)
T4100 000:391.659 - 0.002ms returns 0
T4100 000:391.662 JLINK_WriteReg(R2, 0x000000FF)
T4100 000:391.665 - 0.002ms returns 0
T4100 000:391.668 JLINK_WriteReg(R3, 0x00000000)
T4100 000:391.670 - 0.002ms returns 0
T4100 000:391.673 JLINK_WriteReg(R4, 0x00000000)
T4100 000:391.676 - 0.002ms returns 0
T4100 000:391.679 JLINK_WriteReg(R5, 0x00000000)
T4100 000:391.681 - 0.002ms returns 0
T4100 000:391.684 JLINK_WriteReg(R6, 0x00000000)
T4100 000:391.687 - 0.002ms returns 0
T4100 000:391.690 JLINK_WriteReg(R7, 0x00000000)
T4100 000:391.692 - 0.002ms returns 0
T4100 000:391.695 JLINK_WriteReg(R8, 0x00000000)
T4100 000:391.698 - 0.002ms returns 0
T4100 000:391.701 JLINK_WriteReg(R9, 0x20000160)
T4100 000:391.704 - 0.002ms returns 0
T4100 000:391.707 JLINK_WriteReg(R10, 0x00000000)
T4100 000:391.709 - 0.002ms returns 0
T4100 000:391.712 JLINK_WriteReg(R11, 0x00000000)
T4100 000:391.715 - 0.002ms returns 0
T4100 000:391.718 JLINK_WriteReg(R12, 0x00000000)
T4100 000:391.720 - 0.002ms returns 0
T4100 000:391.723 JLINK_WriteReg(R13 (SP), 0x20001000)
T4100 000:391.726 - 0.002ms returns 0
T4100 000:391.729 JLINK_WriteReg(R14, 0x20000001)
T4100 000:391.731 - 0.002ms returns 0
T4100 000:391.734 JLINK_WriteReg(R15 (PC), 0x200000B6)
T4100 000:391.737 - 0.002ms returns 0
T4100 000:391.740 JLINK_WriteReg(XPSR, 0x01000000)
T4100 000:391.743 - 0.002ms returns 0
T4100 000:391.746 JLINK_WriteReg(MSP, 0x20001000)
T4100 000:391.748 - 0.002ms returns 0
T4100 000:391.751 JLINK_WriteReg(PSP, 0x20001000)
T4100 000:391.754 - 0.002ms returns 0
T4100 000:391.757 JLINK_WriteReg(CFBP, 0x00000000)
T4100 000:391.759 - 0.002ms returns 0
T4100 000:391.762 JLINK_SetBPEx(Addr = 0x20000000, Type = 0xFFFFFFF2)
T4100 000:391.765 - 0.003ms returns 0x00000007
T4100 000:391.768 JLINK_Go()
T4100 000:391.775   CPU_ReadMem(4 bytes @ 0xE0001000)
T4100 000:395.273 - 3.504ms 
T4100 000:395.286 JLINK_IsHalted()
T4100 000:395.682 - 0.396ms returns FALSE
T4100 000:395.693 JLINK_HasError()
T4100 000:397.902 JLINK_IsHalted()
T4100 000:398.298 - 0.396ms returns FALSE
T4100 000:398.302 JLINK_HasError()
T4100 000:400.049 JLINK_IsHalted()
T4100 000:400.446 - 0.397ms returns FALSE
T4100 000:400.451 JLINK_HasError()
T4100 000:402.049 JLINK_IsHalted()
T4100 000:402.447 - 0.398ms returns FALSE
T4100 000:402.454 JLINK_HasError()
T4100 000:405.052 JLINK_IsHalted()
T4100 000:405.448 - 0.395ms returns FALSE
T4100 000:405.456 JLINK_HasError()
T4100 000:407.049 JLINK_IsHalted()
T4100 000:407.451 - 0.400ms returns FALSE
T4100 000:407.460 JLINK_HasError()
T4100 000:409.049 JLINK_IsHalted()
T4100 000:409.423 - 0.373ms returns FALSE
T4100 000:409.427 JLINK_HasError()
T4100 000:411.051 JLINK_IsHalted()
T4100 000:411.450 - 0.399ms returns FALSE
T4100 000:411.462 JLINK_HasError()
T4100 000:413.050 JLINK_IsHalted()
T4100 000:413.448 - 0.398ms returns FALSE
T4100 000:413.453 JLINK_HasError()
T4100 000:415.049 JLINK_IsHalted()
T4100 000:415.422 - 0.372ms returns FALSE
T4100 000:415.426 JLINK_HasError()
T4100 000:417.163 JLINK_IsHalted()
T4100 000:420.293   CPU_ReadMem(2 bytes @ 0x20000000)
T4100 000:420.672 - 3.508ms returns TRUE
T4100 000:420.680 JLINK_ReadReg(R15 (PC))
T4100 000:420.685 - 0.004ms returns 0x20000000
T4100 000:420.688 JLINK_ClrBPEx(BPHandle = 0x00000007)
T4100 000:420.739 - 0.051ms returns 0x00
T4100 000:420.745 JLINK_ReadReg(R0)
T4100 000:420.748 - 0.003ms returns 0x00000000
T4100 000:421.008 JLINK_HasError()
T4100 000:421.014 JLINK_WriteReg(R0, 0x00000001)
T4100 000:421.018 - 0.003ms returns 0
T4100 000:421.021 JLINK_WriteReg(R1, 0x00000800)
T4100 000:421.024 - 0.002ms returns 0
T4100 000:421.027 JLINK_WriteReg(R2, 0x000000FF)
T4100 000:421.031 - 0.004ms returns 0
T4100 000:421.034 JLINK_WriteReg(R3, 0x00000000)
T4100 000:421.036 - 0.002ms returns 0
T4100 000:421.040 JLINK_WriteReg(R4, 0x00000000)
T4100 000:421.042 - 0.002ms returns 0
T4100 000:421.045 JLINK_WriteReg(R5, 0x00000000)
T4100 000:421.048 - 0.002ms returns 0
T4100 000:421.051 JLINK_WriteReg(R6, 0x00000000)
T4100 000:421.053 - 0.002ms returns 0
T4100 000:421.056 JLINK_WriteReg(R7, 0x00000000)
T4100 000:421.059 - 0.002ms returns 0
T4100 000:421.062 JLINK_WriteReg(R8, 0x00000000)
T4100 000:421.064 - 0.002ms returns 0
T4100 000:421.068 JLINK_WriteReg(R9, 0x20000160)
T4100 000:421.070 - 0.002ms returns 0
T4100 000:421.073 JLINK_WriteReg(R10, 0x00000000)
T4100 000:421.076 - 0.002ms returns 0
T4100 000:421.079 JLINK_WriteReg(R11, 0x00000000)
T4100 000:421.081 - 0.002ms returns 0
T4100 000:421.084 JLINK_WriteReg(R12, 0x00000000)
T4100 000:421.087 - 0.002ms returns 0
T4100 000:421.090 JLINK_WriteReg(R13 (SP), 0x20001000)
T4100 000:421.093 - 0.003ms returns 0
T4100 000:421.096 JLINK_WriteReg(R14, 0x20000001)
T4100 000:421.099 - 0.002ms returns 0
T4100 000:421.102 JLINK_WriteReg(R15 (PC), 0x2000006A)
T4100 000:421.104 - 0.002ms returns 0
T4100 000:421.108 JLINK_WriteReg(XPSR, 0x01000000)
T4100 000:421.110 - 0.002ms returns 0
T4100 000:421.113 JLINK_WriteReg(MSP, 0x20001000)
T4100 000:421.116 - 0.002ms returns 0
T4100 000:421.119 JLINK_WriteReg(PSP, 0x20001000)
T4100 000:421.121 - 0.002ms returns 0
T4100 000:421.124 JLINK_WriteReg(CFBP, 0x00000000)
T4100 000:421.127 - 0.002ms returns 0
T4100 000:421.130 JLINK_SetBPEx(Addr = 0x20000000, Type = 0xFFFFFFF2)
T4100 000:421.134 - 0.003ms returns 0x00000008
T4100 000:421.137 JLINK_Go()
T4100 000:421.145   CPU_ReadMem(4 bytes @ 0xE0001000)
T4100 000:424.448 - 3.310ms 
T4100 000:424.458 JLINK_IsHalted()
T4100 000:427.438   CPU_ReadMem(2 bytes @ 0x20000000)
T4100 000:427.860 - 3.401ms returns TRUE
T4100 000:427.864 JLINK_ReadReg(R15 (PC))
T4100 000:427.868 - 0.003ms returns 0x20000000
T4100 000:427.871 JLINK_ClrBPEx(BPHandle = 0x00000008)
T4100 000:427.874 - 0.003ms returns 0x00
T4100 000:427.877 JLINK_ReadReg(R0)
T4100 000:427.880 - 0.002ms returns 0x00000000
T4100 000:483.899 JLINK_WriteMem(0x20000000, 0x164 Bytes, ...)
T4100 000:483.910   Data:  00 BE 0A E0 0D 78 2D 06 68 40 08 24 40 00 00 D3 ...
T4100 000:483.926   CPU_WriteMem(356 bytes @ 0x20000000)
T4100 000:488.601 - 4.702ms returns 0x164
T4100 000:488.626 JLINK_HasError()
T4100 000:488.631 JLINK_WriteReg(R0, 0x08000000)
T4100 000:488.636 - 0.005ms returns 0
T4100 000:488.639 JLINK_WriteReg(R1, 0x007A1200)
T4100 000:488.642 - 0.002ms returns 0
T4100 000:488.645 JLINK_WriteReg(R2, 0x00000002)
T4100 000:488.648 - 0.002ms returns 0
T4100 000:488.651 JLINK_WriteReg(R3, 0x00000000)
T4100 000:488.653 - 0.002ms returns 0
T4100 000:488.656 JLINK_WriteReg(R4, 0x00000000)
T4100 000:488.659 - 0.002ms returns 0
T4100 000:488.662 JLINK_WriteReg(R5, 0x00000000)
T4100 000:488.664 - 0.002ms returns 0
T4100 000:488.667 JLINK_WriteReg(R6, 0x00000000)
T4100 000:488.670 - 0.002ms returns 0
T4100 000:488.673 JLINK_WriteReg(R7, 0x00000000)
T4100 000:488.675 - 0.002ms returns 0
T4100 000:488.678 JLINK_WriteReg(R8, 0x00000000)
T4100 000:488.681 - 0.002ms returns 0
T4100 000:488.684 JLINK_WriteReg(R9, 0x20000160)
T4100 000:488.687 - 0.002ms returns 0
T4100 000:488.690 JLINK_WriteReg(R10, 0x00000000)
T4100 000:488.692 - 0.002ms returns 0
T4100 000:488.695 JLINK_WriteReg(R11, 0x00000000)
T4100 000:488.698 - 0.002ms returns 0
T4100 000:488.701 JLINK_WriteReg(R12, 0x00000000)
T4100 000:488.703 - 0.002ms returns 0
T4100 000:488.707 JLINK_WriteReg(R13 (SP), 0x20001000)
T4100 000:488.717 - 0.010ms returns 0
T4100 000:488.720 JLINK_WriteReg(R14, 0x20000001)
T4100 000:488.722 - 0.002ms returns 0
T4100 000:488.726 JLINK_WriteReg(R15 (PC), 0x20000038)
T4100 000:488.728 - 0.002ms returns 0
T4100 000:488.731 JLINK_WriteReg(XPSR, 0x01000000)
T4100 000:488.734 - 0.002ms returns 0
T4100 000:488.737 JLINK_WriteReg(MSP, 0x20001000)
T4100 000:488.740 - 0.002ms returns 0
T4100 000:488.743 JLINK_WriteReg(PSP, 0x20001000)
T4100 000:488.745 - 0.002ms returns 0
T4100 000:488.748 JLINK_WriteReg(CFBP, 0x00000000)
T4100 000:488.751 - 0.002ms returns 0
T4100 000:488.754 JLINK_SetBPEx(Addr = 0x20000000, Type = 0xFFFFFFF2)
T4100 000:488.760   CPU_ReadMem(2 bytes @ 0x20000000)
T4100 000:489.287 - 0.533ms returns 0x00000009
T4100 000:489.303 JLINK_Go()
T4100 000:489.310   CPU_WriteMem(2 bytes @ 0x20000000)
T4100 000:489.752   CPU_ReadMem(4 bytes @ 0xE0001000)
T4100 000:493.005 - 3.701ms 
T4100 000:493.011 JLINK_IsHalted()
T4100 000:496.111   CPU_ReadMem(2 bytes @ 0x20000000)
T4100 000:496.597 - 3.586ms returns TRUE
T4100 000:496.606 JLINK_ReadReg(R15 (PC))
T4100 000:496.609 - 0.003ms returns 0x20000000
T4100 000:496.637 JLINK_ClrBPEx(BPHandle = 0x00000009)
T4100 000:496.641 - 0.003ms returns 0x00
T4100 000:496.644 JLINK_ReadReg(R0)
T4100 000:496.647 - 0.002ms returns 0x00000000
T4100 000:496.845 JLINK_WriteMem(0x20000164, 0x29C Bytes, ...)
T4100 000:496.850   Data:  68 15 00 20 45 01 00 08 09 15 00 08 61 14 00 08 ...
T4100 000:496.860   CPU_WriteMem(668 bytes @ 0x20000164)
T4100 000:505.036 - 8.191ms returns 0x29C
T4100 000:505.052 JLINK_WriteMem(0x20000400, 0x164 Bytes, ...)
T4100 000:505.055   Data:  C2 F8 00 02 D1 F8 14 E0 CC 69 0E F0 1F 00 03 FA ...
T4100 000:505.070   CPU_WriteMem(356 bytes @ 0x20000400)
T4100 000:509.619 - 4.566ms returns 0x164
T4100 000:509.642 JLINK_HasError()
T4100 000:509.647 JLINK_WriteReg(R0, 0x08000000)
T4100 000:509.653 - 0.006ms returns 0
T4100 000:509.656 JLINK_WriteReg(R1, 0x00000400)
T4100 000:509.659 - 0.002ms returns 0
T4100 000:509.662 JLINK_WriteReg(R2, 0x20000164)
T4100 000:509.665 - 0.002ms returns 0
T4100 000:509.668 JLINK_WriteReg(R3, 0x00000000)
T4100 000:509.670 - 0.002ms returns 0
T4100 000:509.673 JLINK_WriteReg(R4, 0x00000000)
T4100 000:509.676 - 0.002ms returns 0
T4100 000:509.679 JLINK_WriteReg(R5, 0x00000000)
T4100 000:509.681 - 0.002ms returns 0
T4100 000:509.684 JLINK_WriteReg(R6, 0x00000000)
T4100 000:509.687 - 0.002ms returns 0
T4100 000:509.690 JLINK_WriteReg(R7, 0x00000000)
T4100 000:509.692 - 0.002ms returns 0
T4100 000:509.695 JLINK_WriteReg(R8, 0x00000000)
T4100 000:509.698 - 0.002ms returns 0
T4100 000:509.701 JLINK_WriteReg(R9, 0x20000160)
T4100 000:509.703 - 0.002ms returns 0
T4100 000:509.706 JLINK_WriteReg(R10, 0x00000000)
T4100 000:509.709 - 0.002ms returns 0
T4100 000:509.712 JLINK_WriteReg(R11, 0x00000000)
T4100 000:509.714 - 0.002ms returns 0
T4100 000:509.717 JLINK_WriteReg(R12, 0x00000000)
T4100 000:509.720 - 0.002ms returns 0
T4100 000:509.723 JLINK_WriteReg(R13 (SP), 0x20001000)
T4100 000:509.726 - 0.003ms returns 0
T4100 000:509.729 JLINK_WriteReg(R14, 0x20000001)
T4100 000:509.732 - 0.002ms returns 0
T4100 000:509.735 JLINK_WriteReg(R15 (PC), 0x200000F4)
T4100 000:509.737 - 0.002ms returns 0
T4100 000:509.740 JLINK_WriteReg(XPSR, 0x01000000)
T4100 000:509.743 - 0.002ms returns 0
T4100 000:509.746 JLINK_WriteReg(MSP, 0x20001000)
T4100 000:509.749 - 0.002ms returns 0
T4100 000:509.752 JLINK_WriteReg(PSP, 0x20001000)
T4100 000:509.754 - 0.002ms returns 0
T4100 000:509.757 JLINK_WriteReg(CFBP, 0x00000000)
T4100 000:509.760 - 0.002ms returns 0
T4100 000:509.763 JLINK_SetBPEx(Addr = 0x20000000, Type = 0xFFFFFFF2)
T4100 000:509.767 - 0.004ms returns 0x0000000A
T4100 000:509.770 JLINK_Go()
T4100 000:509.779   CPU_ReadMem(4 bytes @ 0xE0001000)
T4100 000:513.274 - 3.503ms 
T4100 000:513.290 JLINK_IsHalted()
T4100 000:513.641 - 0.351ms returns FALSE
T4100 000:513.645 JLINK_HasError()
T4100 000:521.896 JLINK_IsHalted()
T4100 000:522.352 - 0.455ms returns FALSE
T4100 000:522.362 JLINK_HasError()
T4100 000:523.891 JLINK_IsHalted()
T4100 000:524.335 - 0.442ms returns FALSE
T4100 000:524.346 JLINK_HasError()
T4100 000:525.920 JLINK_IsHalted()
T4100 000:526.321 - 0.401ms returns FALSE
T4100 000:526.326 JLINK_HasError()
T4100 000:527.889 JLINK_IsHalted()
T4100 000:528.270 - 0.380ms returns FALSE
T4100 000:528.274 JLINK_HasError()
T4100 000:529.961 JLINK_IsHalted()
T4100 000:530.325 - 0.363ms returns FALSE
T4100 000:530.332 JLINK_HasError()
T4100 000:531.896 JLINK_IsHalted()
T4100 000:532.271 - 0.374ms returns FALSE
T4100 000:532.276 JLINK_HasError()
T4100 000:533.921 JLINK_IsHalted()
T4100 000:534.322 - 0.401ms returns FALSE
T4100 000:534.328 JLINK_HasError()
T4100 000:535.916 JLINK_IsHalted()
T4100 000:536.321 - 0.405ms returns FALSE
T4100 000:536.327 JLINK_HasError()
T4100 000:537.924 JLINK_IsHalted()
T4100 000:538.322 - 0.399ms returns FALSE
T4100 000:538.327 JLINK_HasError()
T4100 000:539.893 JLINK_IsHalted()
T4100 000:540.270 - 0.376ms returns FALSE
T4100 000:540.275 JLINK_HasError()
T4100 000:541.981 JLINK_IsHalted()
T4100 000:542.423 - 0.441ms returns FALSE
T4100 000:542.428 JLINK_HasError()
T4100 000:543.910 JLINK_IsHalted()
T4100 000:546.940   CPU_ReadMem(2 bytes @ 0x20000000)
T4100 000:547.354 - 3.443ms returns TRUE
T4100 000:547.368 JLINK_ReadReg(R15 (PC))
T4100 000:547.374 - 0.005ms returns 0x20000000
T4100 000:547.403 JLINK_ClrBPEx(BPHandle = 0x0000000A)
T4100 000:547.407 - 0.004ms returns 0x00
T4100 000:547.411 JLINK_ReadReg(R0)
T4100 000:547.414 - 0.003ms returns 0x00000000
T4100 000:547.796 JLINK_WriteMem(0x20000164, 0x29C Bytes, ...)
T4100 000:547.801   Data:  5A 70 02 68 02 EB 01 12 D2 F8 B8 21 4F EA 12 42 ...
T4100 000:547.811   CPU_WriteMem(668 bytes @ 0x20000164)
T4100 000:556.010 - 8.213ms returns 0x29C
T4100 000:556.026 JLINK_WriteMem(0x20000400, 0x164 Bytes, ...)
T4100 000:556.030   Data:  4D B1 60 6A 40 EA 05 01 20 46 61 62 01 B0 BD E8 ...
T4100 000:556.045   CPU_WriteMem(356 bytes @ 0x20000400)
T4100 000:560.724 - 4.697ms returns 0x164
T4100 000:560.738 JLINK_HasError()
T4100 000:560.742 JLINK_WriteReg(R0, 0x08000400)
T4100 000:560.749 - 0.006ms returns 0
T4100 000:560.752 JLINK_WriteReg(R1, 0x00000400)
T4100 000:560.754 - 0.002ms returns 0
T4100 000:560.757 JLINK_WriteReg(R2, 0x20000164)
T4100 000:560.760 - 0.002ms returns 0
T4100 000:560.763 JLINK_WriteReg(R3, 0x00000000)
T4100 000:560.766 - 0.002ms returns 0
T4100 000:560.769 JLINK_WriteReg(R4, 0x00000000)
T4100 000:560.771 - 0.002ms returns 0
T4100 000:560.774 JLINK_WriteReg(R5, 0x00000000)
T4100 000:560.777 - 0.002ms returns 0
T4100 000:560.780 JLINK_WriteReg(R6, 0x00000000)
T4100 000:560.782 - 0.002ms returns 0
T4100 000:560.785 JLINK_WriteReg(R7, 0x00000000)
T4100 000:560.788 - 0.003ms returns 0
T4100 000:560.791 JLINK_WriteReg(R8, 0x00000000)
T4100 000:560.794 - 0.002ms returns 0
T4100 000:560.797 JLINK_WriteReg(R9, 0x20000160)
T4100 000:560.799 - 0.002ms returns 0
T4100 000:560.802 JLINK_WriteReg(R10, 0x00000000)
T4100 000:560.805 - 0.002ms returns 0
T4100 000:560.808 JLINK_WriteReg(R11, 0x00000000)
T4100 000:560.810 - 0.002ms returns 0
T4100 000:560.813 JLINK_WriteReg(R12, 0x00000000)
T4100 000:560.816 - 0.002ms returns 0
T4100 000:560.819 JLINK_WriteReg(R13 (SP), 0x20001000)
T4100 000:560.822 - 0.003ms returns 0
T4100 000:560.825 JLINK_WriteReg(R14, 0x20000001)
T4100 000:560.828 - 0.002ms returns 0
T4100 000:560.831 JLINK_WriteReg(R15 (PC), 0x200000F4)
T4100 000:560.833 - 0.002ms returns 0
T4100 000:560.836 JLINK_WriteReg(XPSR, 0x01000000)
T4100 000:560.839 - 0.002ms returns 0
T4100 000:560.842 JLINK_WriteReg(MSP, 0x20001000)
T4100 000:560.844 - 0.002ms returns 0
T4100 000:560.847 JLINK_WriteReg(PSP, 0x20001000)
T4100 000:560.850 - 0.002ms returns 0
T4100 000:560.853 JLINK_WriteReg(CFBP, 0x00000000)
T4100 000:560.855 - 0.002ms returns 0
T4100 000:560.859 JLINK_SetBPEx(Addr = 0x20000000, Type = 0xFFFFFFF2)
T4100 000:560.863 - 0.003ms returns 0x0000000B
T4100 000:560.866 JLINK_Go()
T4100 000:560.881   CPU_ReadMem(4 bytes @ 0xE0001000)
T4100 000:564.271 - 3.404ms 
T4100 000:564.281 JLINK_IsHalted()
T4100 000:564.626 - 0.345ms returns FALSE
T4100 000:564.630 JLINK_HasError()
T4100 000:567.243 JLINK_IsHalted()
T4100 000:567.632 - 0.388ms returns FALSE
T4100 000:567.641 JLINK_HasError()
T4100 000:569.237 JLINK_IsHalted()
T4100 000:569.615 - 0.377ms returns FALSE
T4100 000:569.619 JLINK_HasError()
T4100 000:571.262 JLINK_IsHalted()
T4100 000:571.634 - 0.371ms returns FALSE
T4100 000:571.637 JLINK_HasError()
T4100 000:573.247 JLINK_IsHalted()
T4100 000:573.636 - 0.388ms returns FALSE
T4100 000:573.640 JLINK_HasError()
T4100 000:575.261 JLINK_IsHalted()
T4100 000:575.665 - 0.404ms returns FALSE
T4100 000:575.668 JLINK_HasError()
T4100 000:577.325 JLINK_IsHalted()
T4100 000:577.726 - 0.401ms returns FALSE
T4100 000:577.732 JLINK_HasError()
T4100 000:580.759 JLINK_IsHalted()
T4100 000:581.147 - 0.388ms returns FALSE
T4100 000:581.152 JLINK_HasError()
T4100 000:583.133 JLINK_IsHalted()
T4100 000:583.573 - 0.441ms returns FALSE
T4100 000:583.577 JLINK_HasError()
T4100 000:585.103 JLINK_IsHalted()
T4100 000:585.444 - 0.340ms returns FALSE
T4100 000:585.447 JLINK_HasError()
T4100 000:587.125 JLINK_IsHalted()
T4100 000:587.569 - 0.443ms returns FALSE
T4100 000:587.572 JLINK_HasError()
T4100 000:589.109 JLINK_IsHalted()
T4100 000:589.481 - 0.372ms returns FALSE
T4100 000:589.494 JLINK_HasError()
T4100 000:591.127 JLINK_IsHalted()
T4100 000:591.569 - 0.442ms returns FALSE
T4100 000:591.573 JLINK_HasError()
T4100 000:593.179 JLINK_IsHalted()
T4100 000:593.573 - 0.395ms returns FALSE
T4100 000:593.580 JLINK_HasError()
T4100 000:597.137 JLINK_IsHalted()
T4100 000:600.288   CPU_ReadMem(2 bytes @ 0x20000000)
T4100 000:600.693 - 3.557ms returns TRUE
T4100 000:600.707 JLINK_ReadReg(R15 (PC))
T4100 000:600.711 - 0.004ms returns 0x20000000
T4100 000:600.715 JLINK_ClrBPEx(BPHandle = 0x0000000B)
T4100 000:600.718 - 0.003ms returns 0x00
T4100 000:600.721 JLINK_ReadReg(R0)
T4100 000:600.724 - 0.002ms returns 0x00000000
T4100 000:601.025 JLINK_WriteMem(0x20000164, 0x29C Bytes, ...)
T4100 000:601.031   Data:  02 01 04 91 20 46 29 46 00 F0 7C F8 4F F4 00 70 ...
T4100 000:601.040   CPU_WriteMem(668 bytes @ 0x20000164)
T4100 000:609.257 - 8.231ms returns 0x29C
T4100 000:609.273 JLINK_WriteMem(0x20000400, 0x164 Bytes, ...)
T4100 000:609.276   Data:  22 EA 09 02 42 EA 09 02 5A 60 0F 25 1A 68 F7 03 ...
T4100 000:609.286   CPU_WriteMem(356 bytes @ 0x20000400)
T4100 000:613.876 - 4.603ms returns 0x164
T4100 000:613.885 JLINK_HasError()
T4100 000:613.890 JLINK_WriteReg(R0, 0x08000800)
T4100 000:613.894 - 0.004ms returns 0
T4100 000:613.897 JLINK_WriteReg(R1, 0x00000400)
T4100 000:613.900 - 0.002ms returns 0
T4100 000:613.903 JLINK_WriteReg(R2, 0x20000164)
T4100 000:613.907 - 0.003ms returns 0
T4100 000:613.910 JLINK_WriteReg(R3, 0x00000000)
T4100 000:613.912 - 0.002ms returns 0
T4100 000:613.915 JLINK_WriteReg(R4, 0x00000000)
T4100 000:613.918 - 0.002ms returns 0
T4100 000:613.921 JLINK_WriteReg(R5, 0x00000000)
T4100 000:613.923 - 0.002ms returns 0
T4100 000:613.926 JLINK_WriteReg(R6, 0x00000000)
T4100 000:613.929 - 0.002ms returns 0
T4100 000:613.932 JLINK_WriteReg(R7, 0x00000000)
T4100 000:613.935 - 0.002ms returns 0
T4100 000:613.937 JLINK_WriteReg(R8, 0x00000000)
T4100 000:613.940 - 0.002ms returns 0
T4100 000:613.943 JLINK_WriteReg(R9, 0x20000160)
T4100 000:613.945 - 0.002ms returns 0
T4100 000:613.948 JLINK_WriteReg(R10, 0x00000000)
T4100 000:613.951 - 0.002ms returns 0
T4100 000:613.954 JLINK_WriteReg(R11, 0x00000000)
T4100 000:613.957 - 0.002ms returns 0
T4100 000:613.960 JLINK_WriteReg(R12, 0x00000000)
T4100 000:613.962 - 0.002ms returns 0
T4100 000:613.965 JLINK_WriteReg(R13 (SP), 0x20001000)
T4100 000:613.968 - 0.003ms returns 0
T4100 000:613.971 JLINK_WriteReg(R14, 0x20000001)
T4100 000:613.974 - 0.002ms returns 0
T4100 000:613.977 JLINK_WriteReg(R15 (PC), 0x200000F4)
T4100 000:613.980 - 0.002ms returns 0
T4100 000:613.983 JLINK_WriteReg(XPSR, 0x01000000)
T4100 000:613.992 - 0.009ms returns 0
T4100 000:613.995 JLINK_WriteReg(MSP, 0x20001000)
T4100 000:613.998 - 0.002ms returns 0
T4100 000:614.001 JLINK_WriteReg(PSP, 0x20001000)
T4100 000:614.003 - 0.002ms returns 0
T4100 000:614.006 JLINK_WriteReg(CFBP, 0x00000000)
T4100 000:614.009 - 0.002ms returns 0
T4100 000:614.012 JLINK_SetBPEx(Addr = 0x20000000, Type = 0xFFFFFFF2)
T4100 000:614.016 - 0.003ms returns 0x0000000C
T4100 000:614.019 JLINK_Go()
T4100 000:614.027   CPU_ReadMem(4 bytes @ 0xE0001000)
T4100 000:617.369 - 3.349ms 
T4100 000:617.374 JLINK_IsHalted()
T4100 000:617.717 - 0.343ms returns FALSE
T4100 000:617.721 JLINK_HasError()
T4100 000:620.130 JLINK_IsHalted()
T4100 000:620.570 - 0.440ms returns FALSE
T4100 000:620.574 JLINK_HasError()
T4100 000:622.126 JLINK_IsHalted()
T4100 000:622.581 - 0.454ms returns FALSE
T4100 000:622.594 JLINK_HasError()
T4100 000:624.108 JLINK_IsHalted()
T4100 000:624.570 - 0.461ms returns FALSE
T4100 000:624.574 JLINK_HasError()
T4100 000:626.105 JLINK_IsHalted()
T4100 000:626.502 - 0.396ms returns FALSE
T4100 000:626.517 JLINK_HasError()
T4100 000:630.135 JLINK_IsHalted()
T4100 000:630.571 - 0.437ms returns FALSE
T4100 000:630.575 JLINK_HasError()
T4100 000:632.106 JLINK_IsHalted()
T4100 000:632.494 - 0.387ms returns FALSE
T4100 000:632.498 JLINK_HasError()
T4100 000:634.126 JLINK_IsHalted()
T4100 000:634.493 - 0.368ms returns FALSE
T4100 000:634.497 JLINK_HasError()
T4100 000:636.126 JLINK_IsHalted()
T4100 000:636.568 - 0.442ms returns FALSE
T4100 000:636.572 JLINK_HasError()
T4100 000:638.126 JLINK_IsHalted()
T4100 000:638.569 - 0.443ms returns FALSE
T4100 000:638.572 JLINK_HasError()
T4100 000:640.108 JLINK_IsHalted()
T4100 000:640.470 - 0.361ms returns FALSE
T4100 000:640.474 JLINK_HasError()
T4100 000:642.104 JLINK_IsHalted()
T4100 000:642.447 - 0.343ms returns FALSE
